
T073C 000:153 SEGGER J-Link V6.14h Log File (0001ms, 0123ms total)
T073C 000:153 DLL Compiled: May 10 2017 18:22:45 (0001ms, 0123ms total)
T073C 000:153 Logging started @ 2018-01-14 14:21 (0001ms, 0123ms total)
T073C 000:154 JLINK_SetWarnOutHandler(...) (0000ms, 0123ms total)
T073C 000:154 JLINK_OpenEx(...)
Firmware: J-Link V9 compiled Dec  1 2017 14:40:21
Hardware: V9.20
Feature(s): RDI, GDB, FlashDL, FlashBP, JFlash, RDDIWEBSRV Webserver running on local port 19080 (0056ms, 0179ms total)
T073C 000:154   returns O.K. (0056ms, 0179ms total)
T073C 000:210 JLINK_SetErrorOutHandler(...) (0000ms, 0179ms total)
T073C 000:210 JLINK_ExecCommand("ProjectFile = "I:\Shared Plugs\WPI-SharedPlugs\JLinkSettings.ini"", ...). C:\Program Files (x86)\SEGGER\JLink_V614h\JLinkDevices.xml evaluated successfully.  returns 0x00 (0122ms, 0301ms total)
T073C 000:334 JLINK_ExecCommand("Device = MK64FX512xxx12", ...). Device "MK64FX512XXX12" selected.  returns 0x00 (0003ms, 0304ms total)
T073C 000:337 JLINK_ExecCommand("DisableConnectionTimeout", ...).   returns 0x01 (0000ms, 0304ms total)
T073C 000:337 JLINK_GetHardwareVersion()  returns 0x16760 (0000ms, 0304ms total)
T073C 000:337 JLINK_GetDLLVersion()  returns 61408 (0000ms, 0304ms total)
T073C 000:337 JLINK_GetFirmwareString(...) (0000ms, 0304ms total)
T073C 000:344 JLINK_GetDLLVersion()  returns 61408 (0000ms, 0305ms total)
T073C 000:344 JLINK_GetCompileDateTime() (0000ms, 0305ms total)
T073C 000:346 JLINK_GetFirmwareString(...) (0000ms, 0305ms total)
T073C 000:348 JLINK_GetHardwareVersion()  returns 0x16760 (0000ms, 0305ms total)
T073C 000:354 JLINK_TIF_Select(JLINKARM_TIF_SWD)  returns 0x00 (0000ms, 0305ms total)
T073C 000:354 JLINK_SetSpeed(5000) (0000ms, 0305ms total)
T073C 000:354 JLINK_GetId() >0x10B TIF>Found SW-DP with ID 0x2BA01477 >0x0D TIF> >0x28 TIF> >0x0D TIF> >0x28 TIF> >0x0D TIF> >0x28 TIF> >0x0D TIF> >0x28 TIF> >0x0D TIF> >0x21 TIF> >0x0D TIF> >0x28 TIF> >0x0D TIF> >0x21 TIF> >0x0D TIF> >0x21 TIF> >0x0D TIF> >0x21 TIF> >0x0D TIF> >0x21 TIF> >0x0D TIF> >0x21 TIF> >0x0D TIF> >0x21 TIF> >0x0D TIF> >0x21 TIF> >0x0D TIF> >0x21 TIF> >0x0D TIF> >0x21 TIF> >0x0D TIF> >0x21 TIF> >0x0D TIF> >0x21 TIF> >0x0D TIF> >0x21 TIF> >0x0D TIF> >0x21 TIF> >0x0D TIF> >0x21 TIF>
 >0x0D TIF> >0x21 TIF> >0x0D TIF> >0x21 TIF> >0x0D TIF> >0x21 TIF> >0x0D TIF> >0x21 TIF> >0x0D TIF> >0x21 TIF> >0x0D TIF> >0x21 TIF> >0x0D TIF> >0x21 TIF> >0x0D TIF> >0x21 TIF> >0x0D TIF> >0x21 TIF> >0x0D TIF> >0x21 TIF> >0x0D TIF> >0x21 TIF> >0x0D TIF> >0x21 TIF> >0x0D TIF> >0x21 TIF> >0x0D TIF> >0x21 TIF> >0x0D TIF> >0x21 TIF> >0x0D TIF> >0x21 TIF> >0x0D TIF> >0x21 TIF> >0x0D TIF> >0x21 TIF> >0x0D TIF> >0x21 TIF> >0x0D TIF> >0x21 TIF> >0x0D TIF> >0x21 TIF> >0x0D TIF> >0x21 TIF> >0x0D TIF> >0x21 TIF>
 >0x0D TIF> >0x21 TIF> >0x0D TIF> >0x21 TIF> >0x0D TIF> >0x21 TIF> >0x0D TIF> >0x21 TIF> >0x0D TIF> >0x21 TIF> >0x0D TIF> >0x21 TIF> >0x0D TIF> >0x21 TIF> >0x0D TIF> >0x21 TIF> >0x0D TIF> >0x21 TIF> >0x0D TIF> >0x21 TIF> >0x0D TIF> >0x21 TIF> >0x0D TIF> >0x21 TIF> >0x0D TIF> >0x21 TIF> >0x0D TIF> >0x21 TIF> >0x0D TIF> >0x21 TIF> >0x0D TIF> >0x21 TIF> >0x0D TIF> >0x21 TIF> >0x0D TIF> >0x21 TIF> >0x0D TIF> >0x21 TIF> >0x0D TIF> >0x21 TIF> >0x0D TIF> >0x21 TIF> >0x0D TIF> >0x21 TIF> >0x0D TIF> >0x21 TIF>
 >0x0D TIF> >0x21 TIF> >0x0D TIF> >0x21 TIF> >0x0D TIF> >0x21 TIF> >0x0D TIF> >0x21 TIF> >0x0D TIF> >0x21 TIF> >0x0D TIF> >0x21 TIF> >0x0D TIF> >0x21 TIF> >0x0D TIF> >0x21 TIF> >0x0D TIF> >0x21 TIF> >0x0D TIF> >0x21 TIF> >0x0D TIF> >0x21 TIF> >0x0D TIF> >0x21 TIF> >0x0D TIF> >0x21 TIF> >0x0D TIF> >0x21 TIF> >0x0D TIF> >0x21 TIF> >0x0D TIF> >0x21 TIF> >0x0D TIF> >0x21 TIF> >0x0D TIF> >0x21 TIF> >0x0D TIF> >0x21 TIF> >0x0D TIF> >0x21 TIF> >0x0D TIF> >0x21 TIF> >0x0D TIF> >0x21 TIF> >0x0D TIF> >0x21 TIF>
 >0x0D TIF> >0x21 TIF> >0x0D TIF> >0x21 TIF> >0x0D TIF> >0x21 TIF> >0x0D TIF> >0x21 TIF> >0x0D TIF> >0x21 TIF> >0x0D TIF> >0x21 TIF> >0x0D TIF> >0x21 TIF> >0x0D TIF> >0x21 TIF> >0x0D TIF> >0x21 TIF> >0x0D TIF> >0x21 TIF> >0x0D TIF> >0x21 TIF> >0x0D TIF> >0x21 TIF> >0x0D TIF> >0x21 TIF> >0x0D TIF> >0x21 TIF> >0x0D TIF> >0x21 TIF> >0x0D TIF> >0x21 TIF> >0x0D TIF> >0x21 TIF> >0x0D TIF> >0x21 TIF> >0x0D TIF> >0x21 TIF> >0x0D TIF> >0x21 TIF> >0x0D TIF> >0x21 TIF> >0x0D TIF> >0x21 TIF> >0x0D TIF> >0x21 TIF>
 >0x0D TIF> >0x21 TIF> >0x0D TIF> >0x21 TIF> >0x0D TIF> >0x21 TIF> >0x0D TIF> >0x21 TIF> >0x0D TIF> >0x21 TIF> >0x0D TIF> >0x21 TIF> >0x0D TIF> >0x21 TIF> >0x0D TIF> >0x21 TIF> >0x0D TIF> >0x21 TIF> >0x0D TIF> >0x21 TIF> >0x0D TIF> >0x21 TIF> >0x0D TIF> >0x21 TIF> >0x0D TIF> >0x21 TIF> >0x0D TIF> >0x21 TIF> >0x0D TIF> >0x21 TIF> >0x0D TIF> >0x21 TIF> >0x0D TIF> >0x21 TIF> >0x0D TIF> >0x21 TIF> >0x0D TIF> >0x21 TIF> >0x0D TIF> >0x21 TIF> >0x0D TIF> >0x21 TIF> >0x0D TIF> >0x21 TIF> >0x0D TIF> >0x21 TIF>
 >0x0D TIF> >0x21 TIF> >0x0D TIF> >0x21 TIF> >0x0D TIF> >0x21 TIF> >0x0D TIF> >0x21 TIF> >0x0D TIF> >0x21 TIF> >0x0D TIF> >0x21 TIF> >0x0D TIF> >0x21 TIF> >0x0D TIF> >0x21 TIF> >0x0D TIF> >0x21 TIF> >0x0D TIF> >0x21 TIF> >0x0D TIF> >0x21 TIF> >0x0D TIF> >0x21 TIF> >0x0D TIF> >0x21 TIF> >0x0D TIF> >0x21 TIF> >0x0D TIF> >0x21 TIF> >0x0D TIF> >0x21 TIF> >0x0D TIF> >0x21 TIF> >0x0D TIF> >0x21 TIF> >0x0D TIF> >0x21 TIF> >0x0D TIF> >0x21 TIF> >0x0D TIF> >0x21 TIF> >0x0D TIF> >0x21 TIF> >0x0D TIF> >0x21 TIF>
 >0x0D TIF> >0x21 TIF> >0x0D TIF> >0x21 TIF> >0x0D TIF> >0x21 TIF> >0x0D TIF> >0x21 TIF> >0x0D TIF> >0x21 TIF> >0x0D TIF> >0x21 TIF> >0x0D TIF> >0x21 TIF> >0x0D TIF> >0x21 TIF> >0x0D TIF> >0x21 TIF> >0x0D TIF> >0x21 TIF> >0x0D TIF> >0x21 TIF> >0x0D TIF> >0x21 TIF> >0x0D TIF> >0x21 TIF> >0x0D TIF> >0x21 TIF> >0x0D TIF> >0x21 TIF> >0x0D TIF> >0x21 TIF> >0x0D TIF> >0x21 TIF> >0x0D TIF> >0x21 TIF> >0x0D TIF> >0x21 TIF> >0x0D TIF> >0x21 TIF> >0x0D TIF> >0x21 TIF> >0x0D TIF> >0x21 TIF> >0x0D TIF> >0x28 TIF>
 >0x0D TIF> >0x28 TIF> >0x0D TIF> >0x28 TIF> >0x0D TIF> >0x21 TIF> >0x0D TIF> >0x21 TIF> >0x10B TIF>Found SW-DP with ID 0x2BA01477 >0x0D TIF> >0x28 TIF> >0x0D TIF> >0x28 TIF>No AP preselected. Assuming that AP[0] is the AHB-AP >0x0D TIF> >0x28 TIF> >0x0D TIF> >0x28 TIF> >0x0D TIF> >0x21 TIF> >0x0D TIF> >0x28 TIF> >0x0D TIF> >0x28 TIF> >0x0D TIF> >0x21 TIF> >0x0D TIF> >0x21 TIF> >0x0D TIF> >0x21 TIF>AP-IDR: 0x24770011, Type: AHB-APAHB-AP ROM: 0xE00FF000 (Base addr. of first ROM table) >0x0D TIF>
 >0x28 TIF> >0x0D TIF> >0x28 TIF> >0x0D TIF> >0x28 TIF> >0x0D TIF> >0x21 TIF> >0x0D TIF> >0x21 TIF> >0x0D TIF> >0x28 TIF> >0x0D TIF> >0x21 TIF> >0x0D TIF> >0x21 TIF>Found Cortex-M4 r0p1, Little endian. -- CPU_ReadMem(4 bytes @ 0xE000EDF0) -- CPU_WriteMem(4 bytes @ 0xE000EDF0) -- CPU_ReadMem(4 bytes @ 0xE0002000)FPUnit: 6 code (BP) slots and 2 literal slots -- CPU_ReadMem(4 bytes @ 0xE000EDFC) -- CPU_WriteMem(4 bytes @ 0xE000EDFC) -- CPU_ReadMem(4 bytes @ 0xE0001000) -- CPU_WriteMem(4 bytes @ 0xE0001000)
 -- CPU_ReadMem(4 bytes @ 0xE000ED88) -- CPU_WriteMem(4 bytes @ 0xE000ED88) -- CPU_ReadMem(4 bytes @ 0xE000ED88) -- CPU_WriteMem(4 bytes @ 0xE000ED88)CoreSight components:ROMTbl[0] @ E00FF000 -- CPU_ReadMem(16 bytes @ 0xE00FF000) -- CPU_ReadMem(16 bytes @ 0xE000EFF0) -- CPU_ReadMem(16 bytes @ 0xE000EFE0)ROMTbl[0][0]: E000E000, CID: B105E00D, PID: 000BB00C SCS -- CPU_ReadMem(16 bytes @ 0xE0001FF0) -- CPU_ReadMem(16 bytes @ 0xE0001FE0)ROMTbl[0][1]: E0001000, CID: B105E00D, PID: 003BB002 DWT
 -- CPU_ReadMem(16 bytes @ 0xE0002FF0) -- CPU_ReadMem(16 bytes @ 0xE0002FE0)ROMTbl[0][2]: E0002000, CID: B105E00D, PID: 002BB003 FPB -- CPU_ReadMem(16 bytes @ 0xE0000FF0) -- CPU_ReadMem(16 bytes @ 0xE0000FE0)ROMTbl[0][3]: E0000000, CID: B105E00D, PID: 003BB001 ITM -- CPU_ReadMem(16 bytes @ 0xE00FF010) -- CPU_ReadMem(16 bytes @ 0xE0040FF0) -- CPU_ReadMem(16 bytes @ 0xE0040FE0)ROMTbl[0][4]: E0040000, CID: B105900D, PID: 000BB9A1 TPIU -- CPU_ReadMem(16 bytes @ 0xE0041FF0)
 -- CPU_ReadMem(16 bytes @ 0xE0041FE0)ROMTbl[0][5]: E0041000, CID: B105900D, PID: 000BB925 ETM -- CPU_ReadMem(16 bytes @ 0xE0042FF0) -- CPU_ReadMem(16 bytes @ 0xE0042FE0)ROMTbl[0][6]: E0042000, CID: B105900D, PID: 003BB907 ETB -- CPU_ReadMem(16 bytes @ 0xE0043FF0) -- CPU_ReadMem(16 bytes @ 0xE0043FE0)ROMTbl[0][7]: E0043000, CID: B105900D, PID: 001BB908 CSTF -- CPU_ReadMem(16 bytes @ 0xE00FF020) >0x0D TIF> >0x21 TIF>  returns 0x2BA01477 (0109ms, 0414ms total)
T073C 000:464 JLINK_GetDLLVersion()  returns 61408 (0000ms, 0414ms total)
T073C 000:464 JLINK_CORE_GetFound()  returns 0xE0000FF (0000ms, 0414ms total)
T073C 000:464 JLINK_GetDebugInfo(0x100 = JLINKARM_ROM_TABLE_ADDR_INDEX) -- Value=0xE00FF000  returns 0x00 (0000ms, 0414ms total)
T073C 000:466 JLINK_ReadMem (0xE00FF000, 0x0020 Bytes, ...) -- CPU is running -- CPU_ReadMem(32 bytes @ 0xE00FF000) - Data: 03 F0 F0 FF 03 20 F0 FF 03 30 F0 FF 03 10 F0 FF ...  returns 0x00 (0001ms, 0415ms total)
T073C 000:467 JLINK_ReadMem (0xE000EFF0, 0x0010 Bytes, ...) -- CPU is running -- CPU_ReadMem(16 bytes @ 0xE000EFF0) - Data: 0D 00 00 00 E0 00 00 00 05 00 00 00 B1 00 00 00  returns 0x00 (0000ms, 0415ms total)
T073C 000:467 JLINK_ReadMem (0xE000EFD0, 0x0020 Bytes, ...) -- CPU is running -- CPU_ReadMem(32 bytes @ 0xE000EFD0) - Data: 04 00 00 00 00 00 00 00 00 00 00 00 00 00 00 00 ...  returns 0x00 (0001ms, 0416ms total)
T073C 000:468 JLINK_ReadMem (0xE0001FF0, 0x0010 Bytes, ...) -- CPU is running -- CPU_ReadMem(16 bytes @ 0xE0001FF0) - Data: 0D 00 00 00 E0 00 00 00 05 00 00 00 B1 00 00 00  returns 0x00 (0000ms, 0416ms total)
T073C 000:468 JLINK_ReadMem (0xE0001FD0, 0x0020 Bytes, ...) -- CPU is running -- CPU_ReadMem(32 bytes @ 0xE0001FD0) - Data: 04 00 00 00 00 00 00 00 00 00 00 00 00 00 00 00 ...  returns 0x00 (0000ms, 0416ms total)
T073C 000:468 JLINK_ReadMem (0xE0002FF0, 0x0010 Bytes, ...) -- CPU is running -- CPU_ReadMem(16 bytes @ 0xE0002FF0) - Data: 0D 00 00 00 E0 00 00 00 05 00 00 00 B1 00 00 00  returns 0x00 (0001ms, 0417ms total)
T073C 000:469 JLINK_ReadMem (0xE0002FD0, 0x0020 Bytes, ...) -- CPU is running -- CPU_ReadMem(32 bytes @ 0xE0002FD0) - Data: 04 00 00 00 00 00 00 00 00 00 00 00 00 00 00 00 ...  returns 0x00 (0000ms, 0417ms total)
T073C 000:469 JLINK_ReadMem (0xE0000FF0, 0x0010 Bytes, ...) -- CPU is running -- CPU_ReadMem(16 bytes @ 0xE0000FF0) - Data: 0D 00 00 00 E0 00 00 00 05 00 00 00 B1 00 00 00  returns 0x00 (0001ms, 0418ms total)
T073C 000:470 JLINK_ReadMem (0xE0000FD0, 0x0020 Bytes, ...) -- CPU is running -- CPU_ReadMem(32 bytes @ 0xE0000FD0) - Data: 04 00 00 00 00 00 00 00 00 00 00 00 00 00 00 00 ...  returns 0x00 (0000ms, 0418ms total)
T073C 000:470 JLINK_ReadMem (0xE0040FF0, 0x0010 Bytes, ...) -- CPU is running -- CPU_ReadMem(16 bytes @ 0xE0040FF0) - Data: 0D 00 00 00 90 00 00 00 05 00 00 00 B1 00 00 00  returns 0x00 (0001ms, 0419ms total)
T073C 000:471 JLINK_ReadMem (0xE0040FD0, 0x0020 Bytes, ...) -- CPU is running -- CPU_ReadMem(32 bytes @ 0xE0040FD0) - Data: 04 00 00 00 00 00 00 00 00 00 00 00 00 00 00 00 ...  returns 0x00 (0000ms, 0419ms total)
T073C 000:471 JLINK_ReadMem (0xE0041FF0, 0x0010 Bytes, ...) -- CPU is running -- CPU_ReadMem(16 bytes @ 0xE0041FF0) - Data: 0D 00 00 00 90 00 00 00 05 00 00 00 B1 00 00 00  returns 0x00 (0000ms, 0419ms total)
T073C 000:471 JLINK_ReadMem (0xE0041FD0, 0x0020 Bytes, ...) -- CPU is running -- CPU_ReadMem(32 bytes @ 0xE0041FD0) - Data: 04 00 00 00 00 00 00 00 00 00 00 00 00 00 00 00 ...  returns 0x00 (0001ms, 0420ms total)
T073C 000:472 JLINK_ReadMem (0xE0042FF0, 0x0010 Bytes, ...) -- CPU is running -- CPU_ReadMem(16 bytes @ 0xE0042FF0) - Data: 0D 00 00 00 90 00 00 00 05 00 00 00 B1 00 00 00  returns 0x00 (0000ms, 0420ms total)
T073C 000:472 JLINK_ReadMem (0xE0042FD0, 0x0020 Bytes, ...) -- CPU is running -- CPU_ReadMem(32 bytes @ 0xE0042FD0) - Data: 04 00 00 00 00 00 00 00 00 00 00 00 00 00 00 00 ...  returns 0x00 (0000ms, 0420ms total)
T073C 000:472 JLINK_ReadMem (0xE0043FF0, 0x0010 Bytes, ...) -- CPU is running -- CPU_ReadMem(16 bytes @ 0xE0043FF0) - Data: 0D 00 00 00 90 00 00 00 05 00 00 00 B1 00 00 00  returns 0x00 (0001ms, 0421ms total)
T073C 000:473 JLINK_ReadMem (0xE0043FD0, 0x0020 Bytes, ...) -- CPU is running -- CPU_ReadMem(32 bytes @ 0xE0043FD0) - Data: 04 00 00 00 00 00 00 00 00 00 00 00 00 00 00 00 ...  returns 0x00 (0000ms, 0421ms total)
T073C 000:473 JLINK_ReadMem (0xE00FF020, 0x0020 Bytes, ...) -- CPU is running -- CPU_ReadMem(32 bytes @ 0xE00FF020) - Data: 00 00 00 00 00 00 00 00 00 00 00 00 00 00 00 00 ...  returns 0x00 (0001ms, 0422ms total)
T073C 000:474 JLINK_ReadMemU32(0xE000EF40, 0x0001 Items, ...) -- CPU is running -- CPU_ReadMem(4 bytes @ 0xE000EF40) - Data: 21 00 11 10  returns 0x01 (0000ms, 0422ms total)
T073C 000:474 JLINK_ReadMemU32(0xE000EF44, 0x0001 Items, ...) -- CPU is running -- CPU_ReadMem(4 bytes @ 0xE000EF44) - Data: 11 00 00 11  returns 0x01 (0000ms, 0422ms total)
T073C 000:474 JLINK_ReadMemU32(0xE000ED00, 0x0001 Items, ...) -- CPU is running -- CPU_ReadMem(4 bytes @ 0xE000ED00) - Data: 41 C2 0F 41  returns 0x01 (0000ms, 0422ms total)
T073C 000:474 JLINK_SetResetType(JLINKARM_CM3_RESET_TYPE_NORMAL)  returns JLINKARM_CM3_RESET_TYPE_NORMAL (0000ms, 0422ms total)
T073C 000:474 JLINK_Reset() -- CPU is running -- CPU_WriteMem(4 bytes @ 0xE000EDF0) -- CPU is running -- CPU_WriteMem(4 bytes @ 0xE000EDFC) >0x35 TIF> -- CPU is running -- CPU_WriteMem(4 bytes @ 0xE000ED0C) >0x0D TIF> >0x28 TIF> -- CPU is running -- CPU_ReadMem(4 bytes @ 0xE000EDF0) -- CPU is running -- CPU_ReadMem(4 bytes @ 0xE000EDF0) -- CPU is running -- CPU_WriteMem(4 bytes @ 0xE000EDF0) -- CPU is running -- CPU_WriteMem(4 bytes @ 0xE000EDFC) -- CPU is running -- CPU_ReadMem(4 bytes @ 0xE000EDF0)
 -- CPU_ReadMem(2 bytes @ 0x40052000) -- CPU_ReadMem(8 bytes @ 0x20000000) -- CPU_WriteMem(8 bytes @ 0x20000000) -- CPU_ReadMem(4 bytes @ 0xE0001000) -- CPU_WriteMem(8 bytes @ 0x20000000) -- CPU_WriteMem(4 bytes @ 0xE0002000) -- CPU_ReadMem(4 bytes @ 0xE000EDFC) -- CPU_ReadMem(4 bytes @ 0xE0001000) (0068ms, 0490ms total)
T073C 000:542 JLINK_Halt()  returns 0x00 (0000ms, 0490ms total)
T073C 000:542 JLINK_IsHalted()  returns TRUE (0000ms, 0490ms total)
T073C 000:542 JLINK_ReadMemU32(0xE000EDF0, 0x0001 Items, ...) -- CPU_ReadMem(4 bytes @ 0xE000EDF0) - Data: 0B 00 03 00  returns 0x01 (0000ms, 0490ms total)
T073C 000:542 JLINK_WriteU32(0xE000EDF0, 0xA05F0003) -- CPU_WriteMem(4 bytes @ 0xE000EDF0)  returns 0x00 (0000ms, 0490ms total)
T073C 000:542 JLINK_WriteU32(0xE000EDFC, 0x01000000) -- CPU_WriteMem(4 bytes @ 0xE000EDFC)  returns 0x00 (0001ms, 0491ms total)
T073C 000:552 JLINK_GetHWStatus(...)  returns 0x00 (0000ms, 0491ms total)
T073C 000:560 JLINK_GetNumBPUnits(Type = 0xFFFFFF00)  returns 0x06 (0000ms, 0491ms total)
T073C 000:560 JLINK_GetNumBPUnits(Type = 0xF0)  returns 0x2000 (0000ms, 0491ms total)
T073C 000:560 JLINK_GetNumWPUnits()  returns 0x04 (0000ms, 0491ms total)
T073C 000:565 JLINK_GetSpeed()  returns 0xFA0 (0000ms, 0491ms total)
T073C 000:568 JLINK_ReadMemU32(0xE000E004, 0x0001 Items, ...) -- CPU_ReadMem(4 bytes @ 0xE000E004) - Data: 02 00 00 00  returns 0x01 (0000ms, 0491ms total)
T073C 000:568 JLINK_ReadMemU32(0xE000E004, 0x0001 Items, ...) -- CPU_ReadMem(4 bytes @ 0xE000E004) - Data: 02 00 00 00  returns 0x01 (0001ms, 0492ms total)
T073C 000:569 JLINK_WriteMem(0xE0001000, 0x001C Bytes, ...) - Data: 01 00 00 00 00 00 00 00 00 00 00 00 00 00 00 00 ... -- CPU_WriteMem(28 bytes @ 0xE0001000)  returns 0x1C (0000ms, 0492ms total)
T073C 000:569 JLINK_ReadMem (0xE0001000, 0x001C Bytes, ...) -- CPU_ReadMem(28 bytes @ 0xE0001000) - Data: 01 00 00 40 00 00 00 00 00 00 00 00 00 00 00 00 ...  returns 0x00 (0001ms, 0493ms total)
T073C 000:570 JLINK_Halt()  returns 0x00 (0000ms, 0493ms total)
T073C 000:570 JLINK_IsHalted()  returns TRUE (0000ms, 0493ms total)
T073C 000:572 JLINK_WriteMem(0x20000000, 0x0440 Bytes, ...) - Data: 00 BE 0A E0 0D 78 2D 06 68 40 08 24 40 00 00 D3 ... -- CPU_WriteMem(1088 bytes @ 0x20000000)  returns 0x440 (0004ms, 0497ms total)
T073C 000:576 JLINK_WriteReg(R0, 0x00000000)  returns 0x00 (0000ms, 0497ms total)
T073C 000:576 JLINK_WriteReg(R1, 0x00B71B00)  returns 0x00 (0000ms, 0497ms total)
T073C 000:576 JLINK_WriteReg(R2, 0x00000001)  returns 0x00 (0000ms, 0497ms total)
T073C 000:576 JLINK_WriteReg(R3, 0x00000000)  returns 0x00 (0000ms, 0497ms total)
T073C 000:576 JLINK_WriteReg(R4, 0x00000000)  returns 0x00 (0000ms, 0497ms total)
T073C 000:576 JLINK_WriteReg(R5, 0x00000000)  returns 0x00 (0000ms, 0497ms total)
T073C 000:576 JLINK_WriteReg(R6, 0x00000000)  returns 0x00 (0000ms, 0497ms total)
T073C 000:576 JLINK_WriteReg(R7, 0x00000000)  returns 0x00 (0000ms, 0497ms total)
T073C 000:576 JLINK_WriteReg(R8, 0x00000000)  returns 0x00 (0000ms, 0497ms total)
T073C 000:576 JLINK_WriteReg(R9, 0x20000438)  returns 0x00 (0000ms, 0497ms total)
T073C 000:576 JLINK_WriteReg(R10, 0x00000000)  returns 0x00 (0000ms, 0497ms total)
T073C 000:576 JLINK_WriteReg(R11, 0x00000000)  returns 0x00 (0000ms, 0497ms total)
T073C 000:576 JLINK_WriteReg(R12, 0x00000000)  returns 0x00 (0000ms, 0497ms total)
T073C 000:576 JLINK_WriteReg(R13 (SP), 0x20001000)  returns 0x00 (0000ms, 0497ms total)
T073C 000:576 JLINK_WriteReg(R14, 0x20000001)  returns 0x00 (0001ms, 0498ms total)
T073C 000:577 JLINK_WriteReg(R15 (PC), 0x20000020)  returns 0x00 (0000ms, 0498ms total)
T073C 000:577 JLINK_WriteReg(XPSR, 0x01000000)  returns 0x00 (0000ms, 0498ms total)
T073C 000:577 JLINK_WriteReg(MSP, 0x20001000)  returns 0x00 (0000ms, 0498ms total)
T073C 000:577 JLINK_WriteReg(PSP, 0x20001000)  returns 0x00 (0000ms, 0498ms total)
T073C 000:577 JLINK_WriteReg(CFBP, 0x00000000)  returns 0x00 (0000ms, 0498ms total)
T073C 000:577 JLINK_SetBPEx(Addr = 0x20000000, Type = 0xFFFFFFF2) -- CPU_ReadMem(2 bytes @ 0x20000000)  returns 0x00000001 (0000ms, 0498ms total)
T073C 000:577 JLINK_Go() -- CPU_WriteMem(2 bytes @ 0x20000000) -- CPU_ReadMem(4 bytes @ 0xE0001000) -- CPU_WriteMem(4 bytes @ 0xE0002008) -- CPU_WriteMem(4 bytes @ 0xE000200C) -- CPU_WriteMem(4 bytes @ 0xE0002010) -- CPU_WriteMem(4 bytes @ 0xE0002014) -- CPU_WriteMem(4 bytes @ 0xE0002018) -- CPU_WriteMem(4 bytes @ 0xE000201C) -- CPU_WriteMem(4 bytes @ 0xE0001004) (0004ms, 0502ms total)
T073C 000:581 JLINK_IsHalted() -- CPU_ReadMem(2 bytes @ 0x20000000)  returns TRUE (0002ms, 0504ms total)
T073C 000:583 JLINK_ReadReg(R15 (PC))  returns 0x20000000 (0000ms, 0502ms total)
T073C 000:583 JLINK_ClrBPEx(BPHandle = 0x00000001)  returns 0x00 (0000ms, 0502ms total)
T073C 000:583 JLINK_ReadReg(R0)  returns 0x00000000 (0000ms, 0502ms total)
T073C 000:584 JLINK_WriteReg(R0, 0x00000000)  returns 0x00 (0000ms, 0502ms total)
T073C 000:584 JLINK_WriteReg(R1, 0x00001000)  returns 0x00 (0000ms, 0502ms total)
T073C 000:584 JLINK_WriteReg(R2, 0x000000FF)  returns 0x00 (0000ms, 0502ms total)
T073C 000:584 JLINK_WriteReg(R3, 0x00000000)  returns 0x00 (0000ms, 0502ms total)
T073C 000:584 JLINK_WriteReg(R4, 0x00000000)  returns 0x00 (0000ms, 0502ms total)
T073C 000:584 JLINK_WriteReg(R5, 0x00000000)  returns 0x00 (0000ms, 0502ms total)
T073C 000:584 JLINK_WriteReg(R6, 0x00000000)  returns 0x00 (0000ms, 0502ms total)
T073C 000:584 JLINK_WriteReg(R7, 0x00000000)  returns 0x00 (0000ms, 0502ms total)
T073C 000:584 JLINK_WriteReg(R8, 0x00000000)  returns 0x00 (0000ms, 0502ms total)
T073C 000:584 JLINK_WriteReg(R9, 0x20000438)  returns 0x00 (0000ms, 0502ms total)
T073C 000:584 JLINK_WriteReg(R10, 0x00000000)  returns 0x00 (0000ms, 0502ms total)
T073C 000:584 JLINK_WriteReg(R11, 0x00000000)  returns 0x00 (0000ms, 0502ms total)
T073C 000:584 JLINK_WriteReg(R12, 0x00000000)  returns 0x00 (0000ms, 0502ms total)
T073C 000:584 JLINK_WriteReg(R13 (SP), 0x20001000)  returns 0x00 (0000ms, 0502ms total)
T073C 000:584 JLINK_WriteReg(R14, 0x20000001)  returns 0x00 (0000ms, 0502ms total)
T073C 000:584 JLINK_WriteReg(R15 (PC), 0x20000074)  returns 0x00 (0000ms, 0502ms total)
T073C 000:584 JLINK_WriteReg(XPSR, 0x01000000)  returns 0x00 (0000ms, 0502ms total)
T073C 000:584 JLINK_WriteReg(MSP, 0x20001000)  returns 0x00 (0000ms, 0502ms total)
T073C 000:584 JLINK_WriteReg(PSP, 0x20001000)  returns 0x00 (0000ms, 0502ms total)
T073C 000:584 JLINK_WriteReg(CFBP, 0x00000000)  returns 0x00 (0000ms, 0502ms total)
T073C 000:584 JLINK_SetBPEx(Addr = 0x20000000, Type = 0xFFFFFFF2)  returns 0x00000002 (0000ms, 0502ms total)
T073C 000:584 JLINK_Go() -- CPU_ReadMem(4 bytes @ 0xE0001000) (0002ms, 0504ms total)
T073C 000:586 JLINK_IsHalted() -- CPU_ReadMem(2 bytes @ 0x20000000)  returns TRUE (0002ms, 0506ms total)
T073C 000:588 JLINK_ReadReg(R15 (PC))  returns 0x20000000 (0000ms, 0504ms total)
T073C 000:588 JLINK_ClrBPEx(BPHandle = 0x00000002)  returns 0x00 (0000ms, 0504ms total)
T073C 000:588 JLINK_ReadReg(R0)  returns 0x00000001 (0000ms, 0504ms total)
T073C 000:588 JLINK_WriteReg(R0, 0x00000000)  returns 0x00 (0000ms, 0504ms total)
T073C 000:588 JLINK_WriteReg(R1, 0x00001000)  returns 0x00 (0000ms, 0504ms total)
T073C 000:588 JLINK_WriteReg(R2, 0x000000FF)  returns 0x00 (0000ms, 0504ms total)
T073C 000:588 JLINK_WriteReg(R3, 0x00000000)  returns 0x00 (0000ms, 0504ms total)
T073C 000:588 JLINK_WriteReg(R4, 0x00000000)  returns 0x00 (0000ms, 0504ms total)
T073C 000:588 JLINK_WriteReg(R5, 0x00000000)  returns 0x00 (0000ms, 0504ms total)
T073C 000:588 JLINK_WriteReg(R6, 0x00000000)  returns 0x00 (0000ms, 0504ms total)
T073C 000:588 JLINK_WriteReg(R7, 0x00000000)  returns 0x00 (0000ms, 0504ms total)
T073C 000:588 JLINK_WriteReg(R8, 0x00000000)  returns 0x00 (0000ms, 0504ms total)
T073C 000:588 JLINK_WriteReg(R9, 0x20000438)  returns 0x00 (0000ms, 0504ms total)
T073C 000:588 JLINK_WriteReg(R10, 0x00000000)  returns 0x00 (0000ms, 0504ms total)
T073C 000:588 JLINK_WriteReg(R11, 0x00000000)  returns 0x00 (0000ms, 0504ms total)
T073C 000:588 JLINK_WriteReg(R12, 0x00000000)  returns 0x00 (0000ms, 0504ms total)
T073C 000:588 JLINK_WriteReg(R13 (SP), 0x20001000)  returns 0x00 (0000ms, 0504ms total)
T073C 000:588 JLINK_WriteReg(R14, 0x20000001)  returns 0x00 (0000ms, 0504ms total)
T073C 000:588 JLINK_WriteReg(R15 (PC), 0x200000CA)  returns 0x00 (0000ms, 0504ms total)
T073C 000:588 JLINK_WriteReg(XPSR, 0x01000000)  returns 0x00 (0000ms, 0504ms total)
T073C 000:588 JLINK_WriteReg(MSP, 0x20001000)  returns 0x00 (0000ms, 0504ms total)
T073C 000:588 JLINK_WriteReg(PSP, 0x20001000)  returns 0x00 (0000ms, 0504ms total)
T073C 000:588 JLINK_WriteReg(CFBP, 0x00000000)  returns 0x00 (0000ms, 0504ms total)
T073C 000:588 JLINK_SetBPEx(Addr = 0x20000000, Type = 0xFFFFFFF2)  returns 0x00000003 (0000ms, 0504ms total)
T073C 000:588 JLINK_Go() -- CPU_ReadMem(4 bytes @ 0xE0001000) (0002ms, 0506ms total)
T073C 000:590 JLINK_IsHalted()  returns FALSE (0000ms, 0506ms total)
T073C 000:648 JLINK_IsHalted() -- CPU_ReadMem(2 bytes @ 0x20000000)  returns TRUE (0002ms, 0508ms total)
T073C 000:650 JLINK_ReadReg(R15 (PC))  returns 0x20000000 (0000ms, 0506ms total)
T073C 000:650 JLINK_ClrBPEx(BPHandle = 0x00000003)  returns 0x00 (0000ms, 0506ms total)
T073C 000:650 JLINK_ReadReg(R0)  returns 0x00000000 (0000ms, 0506ms total)
T073C 000:651 JLINK_WriteReg(R0, 0x00001000)  returns 0x00 (0000ms, 0506ms total)
T073C 000:651 JLINK_WriteReg(R1, 0x00001000)  returns 0x00 (0000ms, 0506ms total)
T073C 000:651 JLINK_WriteReg(R2, 0x000000FF)  returns 0x00 (0000ms, 0506ms total)
T073C 000:651 JLINK_WriteReg(R3, 0x00000000)  returns 0x00 (0000ms, 0506ms total)
T073C 000:651 JLINK_WriteReg(R4, 0x00000000)  returns 0x00 (0000ms, 0506ms total)
T073C 000:651 JLINK_WriteReg(R5, 0x00000000)  returns 0x00 (0000ms, 0506ms total)
T073C 000:651 JLINK_WriteReg(R6, 0x00000000)  returns 0x00 (0000ms, 0506ms total)
T073C 000:651 JLINK_WriteReg(R7, 0x00000000)  returns 0x00 (0000ms, 0506ms total)
T073C 000:651 JLINK_WriteReg(R8, 0x00000000)  returns 0x00 (0000ms, 0506ms total)
T073C 000:651 JLINK_WriteReg(R9, 0x20000438)  returns 0x00 (0000ms, 0506ms total)
T073C 000:651 JLINK_WriteReg(R10, 0x00000000)  returns 0x00 (0000ms, 0506ms total)
T073C 000:651 JLINK_WriteReg(R11, 0x00000000)  returns 0x00 (0000ms, 0506ms total)
T073C 000:651 JLINK_WriteReg(R12, 0x00000000)  returns 0x00 (0000ms, 0506ms total)
T073C 000:651 JLINK_WriteReg(R13 (SP), 0x20001000)  returns 0x00 (0000ms, 0506ms total)
T073C 000:651 JLINK_WriteReg(R14, 0x20000001)  returns 0x00 (0000ms, 0506ms total)
T073C 000:651 JLINK_WriteReg(R15 (PC), 0x20000074)  returns 0x00 (0000ms, 0506ms total)
T073C 000:651 JLINK_WriteReg(XPSR, 0x01000000)  returns 0x00 (0000ms, 0506ms total)
T073C 000:651 JLINK_WriteReg(MSP, 0x20001000)  returns 0x00 (0000ms, 0506ms total)
T073C 000:651 JLINK_WriteReg(PSP, 0x20001000)  returns 0x00 (0000ms, 0506ms total)
T073C 000:651 JLINK_WriteReg(CFBP, 0x00000000)  returns 0x00 (0000ms, 0506ms total)
T073C 000:651 JLINK_SetBPEx(Addr = 0x20000000, Type = 0xFFFFFFF2)  returns 0x00000004 (0000ms, 0506ms total)
T073C 000:651 JLINK_Go() -- CPU_ReadMem(4 bytes @ 0xE0001000) (0002ms, 0508ms total)
T073C 000:653 JLINK_IsHalted() -- CPU_ReadMem(2 bytes @ 0x20000000)  returns TRUE (0002ms, 0510ms total)
T073C 000:655 JLINK_ReadReg(R15 (PC))  returns 0x20000000 (0000ms, 0508ms total)
T073C 000:655 JLINK_ClrBPEx(BPHandle = 0x00000004)  returns 0x00 (0000ms, 0508ms total)
T073C 000:655 JLINK_ReadReg(R0)  returns 0x00000001 (0000ms, 0508ms total)
T073C 000:655 JLINK_WriteReg(R0, 0x00001000)  returns 0x00 (0000ms, 0508ms total)
T073C 000:655 JLINK_WriteReg(R1, 0x00001000)  returns 0x00 (0000ms, 0508ms total)
T073C 000:655 JLINK_WriteReg(R2, 0x000000FF)  returns 0x00 (0000ms, 0508ms total)
T073C 000:655 JLINK_WriteReg(R3, 0x00000000)  returns 0x00 (0000ms, 0508ms total)
T073C 000:655 JLINK_WriteReg(R4, 0x00000000)  returns 0x00 (0000ms, 0508ms total)
T073C 000:655 JLINK_WriteReg(R5, 0x00000000)  returns 0x00 (0000ms, 0508ms total)
T073C 000:655 JLINK_WriteReg(R6, 0x00000000)  returns 0x00 (0000ms, 0508ms total)
T073C 000:655 JLINK_WriteReg(R7, 0x00000000)  returns 0x00 (0000ms, 0508ms total)
T073C 000:655 JLINK_WriteReg(R8, 0x00000000)  returns 0x00 (0000ms, 0508ms total)
T073C 000:655 JLINK_WriteReg(R9, 0x20000438)  returns 0x00 (0000ms, 0508ms total)
T073C 000:655 JLINK_WriteReg(R10, 0x00000000)  returns 0x00 (0000ms, 0508ms total)
T073C 000:655 JLINK_WriteReg(R11, 0x00000000)  returns 0x00 (0000ms, 0508ms total)
T073C 000:655 JLINK_WriteReg(R12, 0x00000000)  returns 0x00 (0000ms, 0508ms total)
T073C 000:655 JLINK_WriteReg(R13 (SP), 0x20001000)  returns 0x00 (0000ms, 0508ms total)
T073C 000:655 JLINK_WriteReg(R14, 0x20000001)  returns 0x00 (0000ms, 0508ms total)
T073C 000:655 JLINK_WriteReg(R15 (PC), 0x200000CA)  returns 0x00 (0000ms, 0508ms total)
T073C 000:655 JLINK_WriteReg(XPSR, 0x01000000)  returns 0x00 (0000ms, 0508ms total)
T073C 000:655 JLINK_WriteReg(MSP, 0x20001000)  returns 0x00 (0000ms, 0508ms total)
T073C 000:655 JLINK_WriteReg(PSP, 0x20001000)  returns 0x00 (0000ms, 0508ms total)
T073C 000:655 JLINK_WriteReg(CFBP, 0x00000000)  returns 0x00 (0000ms, 0508ms total)
T073C 000:655 JLINK_SetBPEx(Addr = 0x20000000, Type = 0xFFFFFFF2)  returns 0x00000005 (0000ms, 0508ms total)
T073C 000:655 JLINK_Go() -- CPU_ReadMem(4 bytes @ 0xE0001000) (0002ms, 0510ms total)
T073C 000:657 JLINK_IsHalted()  returns FALSE (0000ms, 0510ms total)
T073C 000:664 JLINK_IsHalted() -- CPU_ReadMem(2 bytes @ 0x20000000)  returns TRUE (0002ms, 0512ms total)
T073C 000:666 JLINK_ReadReg(R15 (PC))  returns 0x20000000 (0000ms, 0510ms total)
T073C 000:666 JLINK_ClrBPEx(BPHandle = 0x00000005)  returns 0x00 (0000ms, 0510ms total)
T073C 000:666 JLINK_ReadReg(R0)  returns 0x00000000 (0000ms, 0510ms total)
T073C 000:667 JLINK_WriteReg(R0, 0x00002000)  returns 0x00 (0000ms, 0510ms total)
T073C 000:667 JLINK_WriteReg(R1, 0x00001000)  returns 0x00 (0000ms, 0510ms total)
T073C 000:667 JLINK_WriteReg(R2, 0x000000FF)  returns 0x00 (0000ms, 0510ms total)
T073C 000:667 JLINK_WriteReg(R3, 0x00000000)  returns 0x00 (0000ms, 0510ms total)
T073C 000:667 JLINK_WriteReg(R4, 0x00000000)  returns 0x00 (0000ms, 0510ms total)
T073C 000:667 JLINK_WriteReg(R5, 0x00000000)  returns 0x00 (0000ms, 0510ms total)
T073C 000:667 JLINK_WriteReg(R6, 0x00000000)  returns 0x00 (0000ms, 0510ms total)
T073C 000:667 JLINK_WriteReg(R7, 0x00000000)  returns 0x00 (0000ms, 0510ms total)
T073C 000:667 JLINK_WriteReg(R8, 0x00000000)  returns 0x00 (0000ms, 0510ms total)
T073C 000:667 JLINK_WriteReg(R9, 0x20000438)  returns 0x00 (0000ms, 0510ms total)
T073C 000:667 JLINK_WriteReg(R10, 0x00000000)  returns 0x00 (0000ms, 0510ms total)
T073C 000:667 JLINK_WriteReg(R11, 0x00000000)  returns 0x00 (0000ms, 0510ms total)
T073C 000:667 JLINK_WriteReg(R12, 0x00000000)  returns 0x00 (0000ms, 0510ms total)
T073C 000:667 JLINK_WriteReg(R13 (SP), 0x20001000)  returns 0x00 (0000ms, 0510ms total)
T073C 000:667 JLINK_WriteReg(R14, 0x20000001)  returns 0x00 (0000ms, 0510ms total)
T073C 000:667 JLINK_WriteReg(R15 (PC), 0x20000074)  returns 0x00 (0000ms, 0510ms total)
T073C 000:667 JLINK_WriteReg(XPSR, 0x01000000)  returns 0x00 (0000ms, 0510ms total)
T073C 000:667 JLINK_WriteReg(MSP, 0x20001000)  returns 0x00 (0000ms, 0510ms total)
T073C 000:667 JLINK_WriteReg(PSP, 0x20001000)  returns 0x00 (0000ms, 0510ms total)
T073C 000:667 JLINK_WriteReg(CFBP, 0x00000000)  returns 0x00 (0000ms, 0510ms total)
T073C 000:667 JLINK_SetBPEx(Addr = 0x20000000, Type = 0xFFFFFFF2)  returns 0x00000006 (0000ms, 0510ms total)
T073C 000:667 JLINK_Go() -- CPU_ReadMem(4 bytes @ 0xE0001000) (0002ms, 0512ms total)
T073C 000:669 JLINK_IsHalted() -- CPU_ReadMem(2 bytes @ 0x20000000)  returns TRUE (0002ms, 0514ms total)
T073C 000:671 JLINK_ReadReg(R15 (PC))  returns 0x20000000 (0000ms, 0512ms total)
T073C 000:671 JLINK_ClrBPEx(BPHandle = 0x00000006)  returns 0x00 (0000ms, 0512ms total)
T073C 000:671 JLINK_ReadReg(R0)  returns 0x00000001 (0000ms, 0512ms total)
T073C 000:671 JLINK_WriteReg(R0, 0x00002000)  returns 0x00 (0000ms, 0512ms total)
T073C 000:671 JLINK_WriteReg(R1, 0x00001000)  returns 0x00 (0000ms, 0512ms total)
T073C 000:671 JLINK_WriteReg(R2, 0x000000FF)  returns 0x00 (0000ms, 0512ms total)
T073C 000:671 JLINK_WriteReg(R3, 0x00000000)  returns 0x00 (0000ms, 0512ms total)
T073C 000:671 JLINK_WriteReg(R4, 0x00000000)  returns 0x00 (0000ms, 0512ms total)
T073C 000:671 JLINK_WriteReg(R5, 0x00000000)  returns 0x00 (0000ms, 0512ms total)
T073C 000:671 JLINK_WriteReg(R6, 0x00000000)  returns 0x00 (0000ms, 0512ms total)
T073C 000:671 JLINK_WriteReg(R7, 0x00000000)  returns 0x00 (0000ms, 0512ms total)
T073C 000:671 JLINK_WriteReg(R8, 0x00000000)  returns 0x00 (0000ms, 0512ms total)
T073C 000:671 JLINK_WriteReg(R9, 0x20000438)  returns 0x00 (0000ms, 0512ms total)
T073C 000:671 JLINK_WriteReg(R10, 0x00000000)  returns 0x00 (0000ms, 0512ms total)
T073C 000:671 JLINK_WriteReg(R11, 0x00000000)  returns 0x00 (0000ms, 0512ms total)
T073C 000:671 JLINK_WriteReg(R12, 0x00000000)  returns 0x00 (0000ms, 0512ms total)
T073C 000:671 JLINK_WriteReg(R13 (SP), 0x20001000)  returns 0x00 (0000ms, 0512ms total)
T073C 000:671 JLINK_WriteReg(R14, 0x20000001)  returns 0x00 (0000ms, 0512ms total)
T073C 000:671 JLINK_WriteReg(R15 (PC), 0x200000CA)  returns 0x00 (0000ms, 0512ms total)
T073C 000:671 JLINK_WriteReg(XPSR, 0x01000000)  returns 0x00 (0000ms, 0512ms total)
T073C 000:671 JLINK_WriteReg(MSP, 0x20001000)  returns 0x00 (0000ms, 0512ms total)
T073C 000:671 JLINK_WriteReg(PSP, 0x20001000)  returns 0x00 (0000ms, 0512ms total)
T073C 000:672 JLINK_WriteReg(CFBP, 0x00000000)  returns 0x00 (0000ms, 0512ms total)
T073C 000:672 JLINK_SetBPEx(Addr = 0x20000000, Type = 0xFFFFFFF2)  returns 0x00000007 (0000ms, 0512ms total)
T073C 000:672 JLINK_Go() -- CPU_ReadMem(4 bytes @ 0xE0001000) (0001ms, 0513ms total)
T073C 000:673 JLINK_IsHalted()  returns FALSE (0000ms, 0513ms total)
T073C 000:678 JLINK_IsHalted()  returns FALSE (0000ms, 0513ms total)
T073C 000:679 JLINK_IsHalted()  returns FALSE (0000ms, 0513ms total)
T073C 000:681 JLINK_IsHalted() -- CPU_ReadMem(2 bytes @ 0x20000000)  returns TRUE (0002ms, 0515ms total)
T073C 000:683 JLINK_ReadReg(R15 (PC))  returns 0x20000000 (0000ms, 0513ms total)
T073C 000:683 JLINK_ClrBPEx(BPHandle = 0x00000007)  returns 0x00 (0000ms, 0513ms total)
T073C 000:683 JLINK_ReadReg(R0)  returns 0x00000000 (0000ms, 0513ms total)
T073C 000:683 JLINK_WriteReg(R0, 0x00003000)  returns 0x00 (0000ms, 0513ms total)
T073C 000:683 JLINK_WriteReg(R1, 0x00001000)  returns 0x00 (0000ms, 0513ms total)
T073C 000:683 JLINK_WriteReg(R2, 0x000000FF)  returns 0x00 (0000ms, 0513ms total)
T073C 000:683 JLINK_WriteReg(R3, 0x00000000)  returns 0x00 (0000ms, 0513ms total)
T073C 000:684 JLINK_WriteReg(R4, 0x00000000)  returns 0x00 (0000ms, 0514ms total)
T073C 000:684 JLINK_WriteReg(R5, 0x00000000)  returns 0x00 (0000ms, 0514ms total)
T073C 000:684 JLINK_WriteReg(R6, 0x00000000)  returns 0x00 (0000ms, 0514ms total)
T073C 000:684 JLINK_WriteReg(R7, 0x00000000)  returns 0x00 (0000ms, 0514ms total)
T073C 000:684 JLINK_WriteReg(R8, 0x00000000)  returns 0x00 (0000ms, 0514ms total)
T073C 000:684 JLINK_WriteReg(R9, 0x20000438)  returns 0x00 (0000ms, 0514ms total)
T073C 000:684 JLINK_WriteReg(R10, 0x00000000)  returns 0x00 (0000ms, 0514ms total)
T073C 000:684 JLINK_WriteReg(R11, 0x00000000)  returns 0x00 (0000ms, 0514ms total)
T073C 000:684 JLINK_WriteReg(R12, 0x00000000)  returns 0x00 (0000ms, 0514ms total)
T073C 000:684 JLINK_WriteReg(R13 (SP), 0x20001000)  returns 0x00 (0000ms, 0514ms total)
T073C 000:684 JLINK_WriteReg(R14, 0x20000001)  returns 0x00 (0000ms, 0514ms total)
T073C 000:684 JLINK_WriteReg(R15 (PC), 0x20000074)  returns 0x00 (0000ms, 0514ms total)
T073C 000:684 JLINK_WriteReg(XPSR, 0x01000000)  returns 0x00 (0000ms, 0514ms total)
T073C 000:684 JLINK_WriteReg(MSP, 0x20001000)  returns 0x00 (0000ms, 0514ms total)
T073C 000:684 JLINK_WriteReg(PSP, 0x20001000)  returns 0x00 (0000ms, 0514ms total)
T073C 000:684 JLINK_WriteReg(CFBP, 0x00000000)  returns 0x00 (0000ms, 0514ms total)
T073C 000:684 JLINK_SetBPEx(Addr = 0x20000000, Type = 0xFFFFFFF2)  returns 0x00000008 (0000ms, 0514ms total)
T073C 000:684 JLINK_Go() -- CPU_ReadMem(4 bytes @ 0xE0001000) (0001ms, 0515ms total)
T073C 000:685 JLINK_IsHalted() -- CPU_ReadMem(2 bytes @ 0x20000000)  returns TRUE (0002ms, 0517ms total)
T073C 000:687 JLINK_ReadReg(R15 (PC))  returns 0x20000000 (0000ms, 0515ms total)
T073C 000:687 JLINK_ClrBPEx(BPHandle = 0x00000008)  returns 0x00 (0000ms, 0515ms total)
T073C 000:687 JLINK_ReadReg(R0)  returns 0x00000001 (0000ms, 0515ms total)
T073C 000:687 JLINK_WriteReg(R0, 0x00003000)  returns 0x00 (0000ms, 0515ms total)
T073C 000:687 JLINK_WriteReg(R1, 0x00001000)  returns 0x00 (0000ms, 0515ms total)
T073C 000:687 JLINK_WriteReg(R2, 0x000000FF)  returns 0x00 (0000ms, 0515ms total)
T073C 000:687 JLINK_WriteReg(R3, 0x00000000)  returns 0x00 (0000ms, 0515ms total)
T073C 000:687 JLINK_WriteReg(R4, 0x00000000)  returns 0x00 (0000ms, 0515ms total)
T073C 000:687 JLINK_WriteReg(R5, 0x00000000)  returns 0x00 (0000ms, 0515ms total)
T073C 000:687 JLINK_WriteReg(R6, 0x00000000)  returns 0x00 (0000ms, 0515ms total)
T073C 000:687 JLINK_WriteReg(R7, 0x00000000)  returns 0x00 (0000ms, 0515ms total)
T073C 000:687 JLINK_WriteReg(R8, 0x00000000)  returns 0x00 (0000ms, 0515ms total)
T073C 000:687 JLINK_WriteReg(R9, 0x20000438)  returns 0x00 (0000ms, 0515ms total)
T073C 000:687 JLINK_WriteReg(R10, 0x00000000)  returns 0x00 (0000ms, 0515ms total)
T073C 000:687 JLINK_WriteReg(R11, 0x00000000)  returns 0x00 (0000ms, 0515ms total)
T073C 000:687 JLINK_WriteReg(R12, 0x00000000)  returns 0x00 (0000ms, 0515ms total)
T073C 000:687 JLINK_WriteReg(R13 (SP), 0x20001000)  returns 0x00 (0000ms, 0515ms total)
T073C 000:687 JLINK_WriteReg(R14, 0x20000001)  returns 0x00 (0000ms, 0515ms total)
T073C 000:687 JLINK_WriteReg(R15 (PC), 0x200000CA)  returns 0x00 (0000ms, 0515ms total)
T073C 000:687 JLINK_WriteReg(XPSR, 0x01000000)  returns 0x00 (0000ms, 0515ms total)
T073C 000:687 JLINK_WriteReg(MSP, 0x20001000)  returns 0x00 (0000ms, 0515ms total)
T073C 000:687 JLINK_WriteReg(PSP, 0x20001000)  returns 0x00 (0000ms, 0515ms total)
T073C 000:687 JLINK_WriteReg(CFBP, 0x00000000)  returns 0x00 (0000ms, 0515ms total)
T073C 000:687 JLINK_SetBPEx(Addr = 0x20000000, Type = 0xFFFFFFF2)  returns 0x00000009 (0000ms, 0515ms total)
T073C 000:687 JLINK_Go() -- CPU_ReadMem(4 bytes @ 0xE0001000) (0002ms, 0517ms total)
T073C 000:689 JLINK_IsHalted()  returns FALSE (0000ms, 0517ms total)
T073C 000:692 JLINK_IsHalted()  returns FALSE (0000ms, 0517ms total)
T073C 000:694 JLINK_IsHalted()  returns FALSE (0000ms, 0517ms total)
T073C 000:695 JLINK_IsHalted() -- CPU_ReadMem(2 bytes @ 0x20000000)  returns TRUE (0002ms, 0519ms total)
T073C 000:697 JLINK_ReadReg(R15 (PC))  returns 0x20000000 (0000ms, 0517ms total)
T073C 000:697 JLINK_ClrBPEx(BPHandle = 0x00000009)  returns 0x00 (0000ms, 0517ms total)
T073C 000:697 JLINK_ReadReg(R0)  returns 0x00000000 (0000ms, 0517ms total)
T073C 000:698 JLINK_WriteReg(R0, 0x00004000)  returns 0x00 (0000ms, 0517ms total)
T073C 000:698 JLINK_WriteReg(R1, 0x00001000)  returns 0x00 (0000ms, 0517ms total)
T073C 000:698 JLINK_WriteReg(R2, 0x000000FF)  returns 0x00 (0000ms, 0517ms total)
T073C 000:698 JLINK_WriteReg(R3, 0x00000000)  returns 0x00 (0000ms, 0517ms total)
T073C 000:698 JLINK_WriteReg(R4, 0x00000000)  returns 0x00 (0000ms, 0517ms total)
T073C 000:698 JLINK_WriteReg(R5, 0x00000000)  returns 0x00 (0000ms, 0517ms total)
T073C 000:698 JLINK_WriteReg(R6, 0x00000000)  returns 0x00 (0000ms, 0517ms total)
T073C 000:698 JLINK_WriteReg(R7, 0x00000000)  returns 0x00 (0000ms, 0517ms total)
T073C 000:698 JLINK_WriteReg(R8, 0x00000000)  returns 0x00 (0000ms, 0517ms total)
T073C 000:698 JLINK_WriteReg(R9, 0x20000438)  returns 0x00 (0000ms, 0517ms total)
T073C 000:698 JLINK_WriteReg(R10, 0x00000000)  returns 0x00 (0000ms, 0517ms total)
T073C 000:698 JLINK_WriteReg(R11, 0x00000000)  returns 0x00 (0000ms, 0517ms total)
T073C 000:698 JLINK_WriteReg(R12, 0x00000000)  returns 0x00 (0000ms, 0517ms total)
T073C 000:698 JLINK_WriteReg(R13 (SP), 0x20001000)  returns 0x00 (0000ms, 0517ms total)
T073C 000:698 JLINK_WriteReg(R14, 0x20000001)  returns 0x00 (0000ms, 0517ms total)
T073C 000:698 JLINK_WriteReg(R15 (PC), 0x20000074)  returns 0x00 (0000ms, 0517ms total)
T073C 000:698 JLINK_WriteReg(XPSR, 0x01000000)  returns 0x00 (0000ms, 0517ms total)
T073C 000:698 JLINK_WriteReg(MSP, 0x20001000)  returns 0x00 (0000ms, 0517ms total)
T073C 000:698 JLINK_WriteReg(PSP, 0x20001000)  returns 0x00 (0000ms, 0517ms total)
T073C 000:698 JLINK_WriteReg(CFBP, 0x00000000)  returns 0x00 (0000ms, 0517ms total)
T073C 000:698 JLINK_SetBPEx(Addr = 0x20000000, Type = 0xFFFFFFF2)  returns 0x0000000A (0000ms, 0517ms total)
T073C 000:698 JLINK_Go() -- CPU_ReadMem(4 bytes @ 0xE0001000) (0002ms, 0519ms total)
T073C 000:700 JLINK_IsHalted() -- CPU_ReadMem(2 bytes @ 0x20000000)  returns TRUE (0002ms, 0521ms total)
T073C 000:702 JLINK_ReadReg(R15 (PC))  returns 0x20000000 (0000ms, 0519ms total)
T073C 000:702 JLINK_ClrBPEx(BPHandle = 0x0000000A)  returns 0x00 (0000ms, 0519ms total)
T073C 000:702 JLINK_ReadReg(R0)  returns 0x00000001 (0000ms, 0519ms total)
T073C 000:702 JLINK_WriteReg(R0, 0x00004000)  returns 0x00 (0000ms, 0519ms total)
T073C 000:702 JLINK_WriteReg(R1, 0x00001000)  returns 0x00 (0000ms, 0519ms total)
T073C 000:702 JLINK_WriteReg(R2, 0x000000FF)  returns 0x00 (0000ms, 0519ms total)
T073C 000:702 JLINK_WriteReg(R3, 0x00000000)  returns 0x00 (0000ms, 0519ms total)
T073C 000:702 JLINK_WriteReg(R4, 0x00000000)  returns 0x00 (0000ms, 0519ms total)
T073C 000:702 JLINK_WriteReg(R5, 0x00000000)  returns 0x00 (0000ms, 0519ms total)
T073C 000:702 JLINK_WriteReg(R6, 0x00000000)  returns 0x00 (0000ms, 0519ms total)
T073C 000:702 JLINK_WriteReg(R7, 0x00000000)  returns 0x00 (0000ms, 0519ms total)
T073C 000:702 JLINK_WriteReg(R8, 0x00000000)  returns 0x00 (0000ms, 0519ms total)
T073C 000:702 JLINK_WriteReg(R9, 0x20000438)  returns 0x00 (0000ms, 0519ms total)
T073C 000:702 JLINK_WriteReg(R10, 0x00000000)  returns 0x00 (0000ms, 0519ms total)
T073C 000:702 JLINK_WriteReg(R11, 0x00000000)  returns 0x00 (0000ms, 0519ms total)
T073C 000:702 JLINK_WriteReg(R12, 0x00000000)  returns 0x00 (0000ms, 0519ms total)
T073C 000:702 JLINK_WriteReg(R13 (SP), 0x20001000)  returns 0x00 (0000ms, 0519ms total)
T073C 000:702 JLINK_WriteReg(R14, 0x20000001)  returns 0x00 (0000ms, 0519ms total)
T073C 000:702 JLINK_WriteReg(R15 (PC), 0x200000CA)  returns 0x00 (0000ms, 0519ms total)
T073C 000:702 JLINK_WriteReg(XPSR, 0x01000000)  returns 0x00 (0000ms, 0519ms total)
T073C 000:702 JLINK_WriteReg(MSP, 0x20001000)  returns 0x00 (0000ms, 0519ms total)
T073C 000:702 JLINK_WriteReg(PSP, 0x20001000)  returns 0x00 (0000ms, 0519ms total)
T073C 000:702 JLINK_WriteReg(CFBP, 0x00000000)  returns 0x00 (0000ms, 0519ms total)
T073C 000:702 JLINK_SetBPEx(Addr = 0x20000000, Type = 0xFFFFFFF2)  returns 0x0000000B (0000ms, 0519ms total)
T073C 000:702 JLINK_Go() -- CPU_ReadMem(4 bytes @ 0xE0001000) (0002ms, 0521ms total)
T073C 000:704 JLINK_IsHalted()  returns FALSE (0000ms, 0521ms total)
T073C 000:710 JLINK_IsHalted()  returns FALSE (0000ms, 0521ms total)
T073C 000:711 JLINK_IsHalted() -- CPU_ReadMem(2 bytes @ 0x20000000)  returns TRUE (0002ms, 0523ms total)
T073C 000:713 JLINK_ReadReg(R15 (PC))  returns 0x20000000 (0000ms, 0521ms total)
T073C 000:713 JLINK_ClrBPEx(BPHandle = 0x0000000B)  returns 0x00 (0000ms, 0521ms total)
T073C 000:713 JLINK_ReadReg(R0)  returns 0x00000000 (0000ms, 0521ms total)
T073C 000:714 JLINK_WriteReg(R0, 0x00005000)  returns 0x00 (0000ms, 0521ms total)
T073C 000:714 JLINK_WriteReg(R1, 0x00001000)  returns 0x00 (0000ms, 0521ms total)
T073C 000:714 JLINK_WriteReg(R2, 0x000000FF)  returns 0x00 (0000ms, 0521ms total)
T073C 000:714 JLINK_WriteReg(R3, 0x00000000)  returns 0x00 (0000ms, 0521ms total)
T073C 000:714 JLINK_WriteReg(R4, 0x00000000)  returns 0x00 (0000ms, 0521ms total)
T073C 000:714 JLINK_WriteReg(R5, 0x00000000)  returns 0x00 (0000ms, 0521ms total)
T073C 000:714 JLINK_WriteReg(R6, 0x00000000)  returns 0x00 (0000ms, 0521ms total)
T073C 000:714 JLINK_WriteReg(R7, 0x00000000)  returns 0x00 (0000ms, 0521ms total)
T073C 000:714 JLINK_WriteReg(R8, 0x00000000)  returns 0x00 (0000ms, 0521ms total)
T073C 000:714 JLINK_WriteReg(R9, 0x20000438)  returns 0x00 (0000ms, 0521ms total)
T073C 000:714 JLINK_WriteReg(R10, 0x00000000)  returns 0x00 (0000ms, 0521ms total)
T073C 000:714 JLINK_WriteReg(R11, 0x00000000)  returns 0x00 (0000ms, 0521ms total)
T073C 000:714 JLINK_WriteReg(R12, 0x00000000)  returns 0x00 (0000ms, 0521ms total)
T073C 000:714 JLINK_WriteReg(R13 (SP), 0x20001000)  returns 0x00 (0000ms, 0521ms total)
T073C 000:714 JLINK_WriteReg(R14, 0x20000001)  returns 0x00 (0000ms, 0521ms total)
T073C 000:714 JLINK_WriteReg(R15 (PC), 0x20000074)  returns 0x00 (0000ms, 0521ms total)
T073C 000:714 JLINK_WriteReg(XPSR, 0x01000000)  returns 0x00 (0000ms, 0521ms total)
T073C 000:714 JLINK_WriteReg(MSP, 0x20001000)  returns 0x00 (0000ms, 0521ms total)
T073C 000:714 JLINK_WriteReg(PSP, 0x20001000)  returns 0x00 (0000ms, 0521ms total)
T073C 000:714 JLINK_WriteReg(CFBP, 0x00000000)  returns 0x00 (0000ms, 0521ms total)
T073C 000:714 JLINK_SetBPEx(Addr = 0x20000000, Type = 0xFFFFFFF2)  returns 0x0000000C (0000ms, 0521ms total)
T073C 000:714 JLINK_Go() -- CPU_ReadMem(4 bytes @ 0xE0001000) (0002ms, 0523ms total)
T073C 000:716 JLINK_IsHalted() -- CPU_ReadMem(2 bytes @ 0x20000000)  returns TRUE (0002ms, 0525ms total)
T073C 000:718 JLINK_ReadReg(R15 (PC))  returns 0x20000000 (0000ms, 0523ms total)
T073C 000:718 JLINK_ClrBPEx(BPHandle = 0x0000000C)  returns 0x00 (0000ms, 0523ms total)
T073C 000:718 JLINK_ReadReg(R0)  returns 0x00000001 (0000ms, 0523ms total)
T073C 000:718 JLINK_WriteReg(R0, 0x00005000)  returns 0x00 (0000ms, 0523ms total)
T073C 000:718 JLINK_WriteReg(R1, 0x00001000)  returns 0x00 (0000ms, 0523ms total)
T073C 000:718 JLINK_WriteReg(R2, 0x000000FF)  returns 0x00 (0000ms, 0523ms total)
T073C 000:718 JLINK_WriteReg(R3, 0x00000000)  returns 0x00 (0000ms, 0523ms total)
T073C 000:718 JLINK_WriteReg(R4, 0x00000000)  returns 0x00 (0000ms, 0523ms total)
T073C 000:718 JLINK_WriteReg(R5, 0x00000000)  returns 0x00 (0000ms, 0523ms total)
T073C 000:718 JLINK_WriteReg(R6, 0x00000000)  returns 0x00 (0000ms, 0523ms total)
T073C 000:718 JLINK_WriteReg(R7, 0x00000000)  returns 0x00 (0000ms, 0523ms total)
T073C 000:718 JLINK_WriteReg(R8, 0x00000000)  returns 0x00 (0000ms, 0523ms total)
T073C 000:718 JLINK_WriteReg(R9, 0x20000438)  returns 0x00 (0000ms, 0523ms total)
T073C 000:718 JLINK_WriteReg(R10, 0x00000000)  returns 0x00 (0000ms, 0523ms total)
T073C 000:718 JLINK_WriteReg(R11, 0x00000000)  returns 0x00 (0000ms, 0523ms total)
T073C 000:718 JLINK_WriteReg(R12, 0x00000000)  returns 0x00 (0000ms, 0523ms total)
T073C 000:718 JLINK_WriteReg(R13 (SP), 0x20001000)  returns 0x00 (0000ms, 0523ms total)
T073C 000:718 JLINK_WriteReg(R14, 0x20000001)  returns 0x00 (0000ms, 0523ms total)
T073C 000:718 JLINK_WriteReg(R15 (PC), 0x200000CA)  returns 0x00 (0000ms, 0523ms total)
T073C 000:718 JLINK_WriteReg(XPSR, 0x01000000)  returns 0x00 (0000ms, 0523ms total)
T073C 000:718 JLINK_WriteReg(MSP, 0x20001000)  returns 0x00 (0000ms, 0523ms total)
T073C 000:718 JLINK_WriteReg(PSP, 0x20001000)  returns 0x00 (0000ms, 0523ms total)
T073C 000:718 JLINK_WriteReg(CFBP, 0x00000000)  returns 0x00 (0000ms, 0523ms total)
T073C 000:718 JLINK_SetBPEx(Addr = 0x20000000, Type = 0xFFFFFFF2)  returns 0x0000000D (0000ms, 0523ms total)
T073C 000:718 JLINK_Go() -- CPU_ReadMem(4 bytes @ 0xE0001000) (0002ms, 0525ms total)
T073C 000:720 JLINK_IsHalted()  returns FALSE (0000ms, 0525ms total)
T073C 000:723 JLINK_IsHalted()  returns FALSE (0000ms, 0525ms total)
T073C 000:725 JLINK_IsHalted()  returns FALSE (0000ms, 0525ms total)
T073C 000:726 JLINK_IsHalted() -- CPU_ReadMem(2 bytes @ 0x20000000)  returns TRUE (0002ms, 0527ms total)
T073C 000:728 JLINK_ReadReg(R15 (PC))  returns 0x20000000 (0000ms, 0525ms total)
T073C 000:728 JLINK_ClrBPEx(BPHandle = 0x0000000D)  returns 0x00 (0000ms, 0525ms total)
T073C 000:728 JLINK_ReadReg(R0)  returns 0x00000000 (0000ms, 0525ms total)
T073C 000:728 JLINK_WriteReg(R0, 0x00006000)  returns 0x00 (0001ms, 0526ms total)
T073C 000:729 JLINK_WriteReg(R1, 0x00001000)  returns 0x00 (0000ms, 0526ms total)
T073C 000:729 JLINK_WriteReg(R2, 0x000000FF)  returns 0x00 (0000ms, 0526ms total)
T073C 000:729 JLINK_WriteReg(R3, 0x00000000)  returns 0x00 (0000ms, 0526ms total)
T073C 000:729 JLINK_WriteReg(R4, 0x00000000)  returns 0x00 (0000ms, 0526ms total)
T073C 000:729 JLINK_WriteReg(R5, 0x00000000)  returns 0x00 (0000ms, 0526ms total)
T073C 000:729 JLINK_WriteReg(R6, 0x00000000)  returns 0x00 (0000ms, 0526ms total)
T073C 000:729 JLINK_WriteReg(R7, 0x00000000)  returns 0x00 (0000ms, 0526ms total)
T073C 000:729 JLINK_WriteReg(R8, 0x00000000)  returns 0x00 (0000ms, 0526ms total)
T073C 000:729 JLINK_WriteReg(R9, 0x20000438)  returns 0x00 (0000ms, 0526ms total)
T073C 000:729 JLINK_WriteReg(R10, 0x00000000)  returns 0x00 (0000ms, 0526ms total)
T073C 000:729 JLINK_WriteReg(R11, 0x00000000)  returns 0x00 (0000ms, 0526ms total)
T073C 000:729 JLINK_WriteReg(R12, 0x00000000)  returns 0x00 (0000ms, 0526ms total)
T073C 000:729 JLINK_WriteReg(R13 (SP), 0x20001000)  returns 0x00 (0000ms, 0526ms total)
T073C 000:729 JLINK_WriteReg(R14, 0x20000001)  returns 0x00 (0000ms, 0526ms total)
T073C 000:729 JLINK_WriteReg(R15 (PC), 0x20000074)  returns 0x00 (0000ms, 0526ms total)
T073C 000:729 JLINK_WriteReg(XPSR, 0x01000000)  returns 0x00 (0000ms, 0526ms total)
T073C 000:729 JLINK_WriteReg(MSP, 0x20001000)  returns 0x00 (0000ms, 0526ms total)
T073C 000:729 JLINK_WriteReg(PSP, 0x20001000)  returns 0x00 (0000ms, 0526ms total)
T073C 000:729 JLINK_WriteReg(CFBP, 0x00000000)  returns 0x00 (0000ms, 0526ms total)
T073C 000:729 JLINK_SetBPEx(Addr = 0x20000000, Type = 0xFFFFFFF2)  returns 0x0000000E (0000ms, 0526ms total)
T073C 000:729 JLINK_Go() -- CPU_ReadMem(4 bytes @ 0xE0001000) (0002ms, 0528ms total)
T073C 000:731 JLINK_IsHalted() -- CPU_ReadMem(2 bytes @ 0x20000000)  returns TRUE (0002ms, 0530ms total)
T073C 000:733 JLINK_ReadReg(R15 (PC))  returns 0x20000000 (0000ms, 0528ms total)
T073C 000:733 JLINK_ClrBPEx(BPHandle = 0x0000000E)  returns 0x00 (0000ms, 0528ms total)
T073C 000:733 JLINK_ReadReg(R0)  returns 0x00000001 (0000ms, 0528ms total)
T073C 000:733 JLINK_WriteReg(R0, 0x00006000)  returns 0x00 (0000ms, 0528ms total)
T073C 000:733 JLINK_WriteReg(R1, 0x00001000)  returns 0x00 (0000ms, 0528ms total)
T073C 000:733 JLINK_WriteReg(R2, 0x000000FF)  returns 0x00 (0000ms, 0528ms total)
T073C 000:733 JLINK_WriteReg(R3, 0x00000000)  returns 0x00 (0000ms, 0528ms total)
T073C 000:733 JLINK_WriteReg(R4, 0x00000000)  returns 0x00 (0000ms, 0528ms total)
T073C 000:733 JLINK_WriteReg(R5, 0x00000000)  returns 0x00 (0000ms, 0528ms total)
T073C 000:733 JLINK_WriteReg(R6, 0x00000000)  returns 0x00 (0000ms, 0528ms total)
T073C 000:733 JLINK_WriteReg(R7, 0x00000000)  returns 0x00 (0000ms, 0528ms total)
T073C 000:733 JLINK_WriteReg(R8, 0x00000000)  returns 0x00 (0000ms, 0528ms total)
T073C 000:733 JLINK_WriteReg(R9, 0x20000438)  returns 0x00 (0000ms, 0528ms total)
T073C 000:733 JLINK_WriteReg(R10, 0x00000000)  returns 0x00 (0000ms, 0528ms total)
T073C 000:733 JLINK_WriteReg(R11, 0x00000000)  returns 0x00 (0000ms, 0528ms total)
T073C 000:733 JLINK_WriteReg(R12, 0x00000000)  returns 0x00 (0000ms, 0528ms total)
T073C 000:733 JLINK_WriteReg(R13 (SP), 0x20001000)  returns 0x00 (0000ms, 0528ms total)
T073C 000:733 JLINK_WriteReg(R14, 0x20000001)  returns 0x00 (0000ms, 0528ms total)
T073C 000:733 JLINK_WriteReg(R15 (PC), 0x200000CA)  returns 0x00 (0000ms, 0528ms total)
T073C 000:733 JLINK_WriteReg(XPSR, 0x01000000)  returns 0x00 (0000ms, 0528ms total)
T073C 000:733 JLINK_WriteReg(MSP, 0x20001000)  returns 0x00 (0000ms, 0528ms total)
T073C 000:733 JLINK_WriteReg(PSP, 0x20001000)  returns 0x00 (0000ms, 0528ms total)
T073C 000:733 JLINK_WriteReg(CFBP, 0x00000000)  returns 0x00 (0000ms, 0528ms total)
T073C 000:733 JLINK_SetBPEx(Addr = 0x20000000, Type = 0xFFFFFFF2)  returns 0x0000000F (0000ms, 0528ms total)
T073C 000:733 JLINK_Go() -- CPU_ReadMem(4 bytes @ 0xE0001000) (0001ms, 0529ms total)
T073C 000:734 JLINK_IsHalted()  returns FALSE (0001ms, 0530ms total)
T073C 000:741 JLINK_IsHalted() -- CPU_ReadMem(2 bytes @ 0x20000000)  returns TRUE (0002ms, 0531ms total)
T073C 000:743 JLINK_ReadReg(R15 (PC))  returns 0x20000000 (0000ms, 0529ms total)
